<Qucs Dataset 0.0.19>
<indep frequency 201>
  +2.00000000000000000000e+04
  +2.02726467069963691756e+04
  +2.05490102253345394274e+04
  +2.08291412238331504341e+04
  +2.11130910620451722934e+04
  +2.14009117996742279502e+04
  +2.16926562061192780675e+04
  +2.19883777701494145731e+04
  +2.22881307097105891444e+04
  +2.25919699818659537414e+04
  +2.28999512928717813338e+04
  +2.32121311083907203283e+04
  +2.35285666638442598924e+04
  +2.38493159749063415802e+04
  +2.41744378481400490273e+04
  +2.45039918917792383581e+04
  +2.48380385266572120599e+04
  +2.51766389972843135183e+04
  +2.55198553830766140891e+04
  +2.58677506097375844547e+04
  +2.62203884607950021746e+04
  +2.65778335892950672132e+04
  +2.69401515296560137358e+04
  +2.73074087096832081443e+04
  +2.76796724627481671632e+04
  +2.80570110401334859489e+04
  +2.84394936235461464094e+04
  +2.88271903378013521433e+04
  +2.92201722636793092533e+04
  +2.96185114509572485986e+04
  +3.00222809316191414837e+04
  +3.04315547332454370917e+04
  +3.08464078925853937108e+04
  +3.12669164693144048215e+04
  +3.16931575599788666295e+04
  +3.21252093121311336290e+04
  +3.25631509386572179210e+04
  +3.30070627322997534066e+04
  +3.34570260803789569763e+04
  +3.39131234797143115429e+04
  +3.43754385517495757085e+04
  +3.48440560578841104871e+04
  +3.53190619150130587514e+04
  +3.58005432112795242574e+04
  +3.62885882220413550385e+04
  +3.67832864260557034868e+04
  +3.72847285218841207097e+04
  +3.77930064445213865838e+04
  +3.83082133822509495076e+04
  +3.88304437937302063801e+04
  +3.93597934253086132230e+04
  +3.98963593285820024903e+04
  +4.04402398781860902091e+04
  +4.09915347898326290306e+04
  +4.15503451385913795093e+04
  +4.21167733774213629658e+04
  +4.26909233559546773904e+04
  +4.32729003395364561584e+04
  +4.38628110285242946702e+04
  +4.44607635778508483781e+04
  +4.50668676168531164876e+04
  +4.56812342693719328963e+04
  +4.63039761741256297682e+04
  +4.69352075053613225464e+04
  +4.75750439937877235934e+04
  +4.82236029477934134775e+04
  +4.88810032749542224337e+04
  +4.95473655038339784369e+04
  +5.02228118060822744155e+04
  +5.09074660188336129067e+04
  +5.16014536674118498922e+04
  +5.23049019883441287675e+04
  +5.30179399526886190870e+04
  +5.37406982896802146570e+04
  +5.44733095106985565508e+04
  +5.52159079335628557601e+04
  +5.59686297071578956093e+04
  +5.67316128363956813700e+04
  +5.75049972075175028294e+04
  +5.82889246137407462811e+04
  +5.90835387812555636629e+04
  +5.98889853955756479991e+04
  +6.07054121282485139091e+04
  +6.15329686639297433430e+04
  +6.23718067278262969921e+04
  +6.32220801135141009581e+04
  +6.40839447111346162274e+04
  +6.49575585359760443680e+04
  +6.58430817574439279269e+04
  +6.67406767284269153606e+04
  +6.76505080150626745308e+04
  +6.85727424269095790805e+04
  +6.95075490475299448008e+04
  +7.04550992654898291221e+04
  +7.14155668057817529188e+04
  +7.23891277616755251074e+04
  +7.33759606270035437774e+04
  +7.43762463288859580643e+04
  +7.53901682609020208474e+04
  +7.64179123167138895951e+04
  +7.74596669241483614314e+04
  +7.85156230797436001012e+04
  +7.95859743837666028412e+04
  +8.06709170757081883494e+04
  +8.17706500702616322087e+04
  +8.28853749937921093078e+04
  +8.40152962213029531995e+04
  +8.51606209139060811140e+04
  +8.63215590568032348529e+04
  +8.74983234977847314440e+04
  +8.86911299862534360727e+04
  +8.99001972127803892363e+04
  +9.11257468491998442914e+04
  +9.23680035892508021789e+04
  +9.36271951897726976313e+04
  +9.49035525124626001343e+04
  +9.61973095662015984999e+04
  +9.75087035499583726050e+04
  +9.88379748962774465326e+04
  +1.00185367315360446810e+05
  +1.01551127839748194674e+05
  +1.02935506869611941511e+05
  +1.04338758218662042054e+05
  +1.05761139160682461807e+05
  +1.07202910476699704304e+05
  +1.08664336502794642001e+05
  +1.10145685178566272953e+05
  +1.11647228096256018034e+05
  +1.13169240550541871926e+05
  +1.14712001589011153555e+05
  +1.16275794063321460271e+05
  +1.17860904681059095310e+05
  +1.19467624058304281789e+05
  +1.21096246772913145833e+05
  +1.22747071418525854824e+05
  +1.24420400659311344498e+05
  +1.26116541285457831691e+05
  +1.27835804269420448691e+05
  +1.29578504822934963158e+05
  +1.31344962454809254268e+05
  +1.33135501029502571328e+05
  +1.34950448826502833981e+05
  +1.36790138600514270365e+05
  +1.38654907642464619130e+05
  +1.40545097841344831977e+05
  +1.42461055746891099261e+05
  +1.44403132633121887920e+05
  +1.46371684562740934780e+05
  +1.48367072452418127796e+05
  +1.50389662138960295124e+05
  +1.52439824446384474868e+05
  +1.54517935253905015998e+05
  +1.56624375564847869100e+05
  +1.58759531576503766701e+05
  +1.60923794750934757758e+05
  +1.63117561886744893854e+05
  +1.65341235191829764517e+05
  +1.67595222357117978390e+05
  +1.69879936631317599677e+05
  +1.72195796896681684302e+05
  +1.74543227745806507301e+05
  +1.76922659559477033326e+05
  +1.79334528585573658347e+05
  +1.81779277019053814001e+05
  +1.84257353083025111118e+05
  +1.86769211110922798980e+05
  +1.89315311629808013095e+05
  +1.91896121444800897734e+05
  +1.94512113724665920017e+05
  +1.97163768088562675985e+05
  +1.99851570693979767384e+05
  +2.02576014325868076412e+05
  +2.05337598486987903016e+05
  +2.08136829489488969557e+05
  +2.10974220547737670131e+05
  +2.13850291872410976794e+05
  +2.16765570765872340417e+05
  +2.19720591718847485026e+05
  +2.22715896508419362362e+05
  +2.25752034297357546166e+05
  +2.28829561734802962746e+05
  +2.31949043058323732112e+05
  +2.35111050197364296764e+05
  +2.38316162878102739342e+05
  +2.41564968729739106493e+05
  +2.44858063392231269972e+05
  +2.48196050625501287868e+05
  +2.51579542420128738740e+05
  +2.55009159109553816961e+05
  +2.58485529483810445527e+05
  +2.62009290904809109634e+05
  +2.65581089423191675451e+05
  +2.69201579896778741386e+05
  +2.72871426110632601194e+05
  +2.76591300898756016977e+05
  +2.80361886267450405285e+05
  +2.84183873520355962683e+05
  +2.88057963385195820592e+05
  +2.91984866142248676624e+05
  +2.95965301754571613856e+05
  +3.00000000000000116415e+05
</indep>
<dep dBS11 frequency>
  -1.68194710858397655784e+01
  -1.67084072060820822969e+01
  -1.65975188099112536122e+01
  -1.64868104977797145239e+01
  -1.63762869857002648644e+01
  -1.62659531079288370847e+01
  -1.61558138197021925464e+01
  -1.60458742000316760823e+01
  -1.59361394545541870116e+01
  -1.58266149184416313744e+01
  -1.57173060593702018650e+01
  -1.56082184805508319414e+01
  -1.54993579238223855299e+01
  -1.53907302728091526234e+01
  -1.52823415561443258781e+01
  -1.51741979507613820033e+01
  -1.50663057852552633165e+01
  -1.49586715433154999744e+01
  -1.48513018672335910253e+01
  -1.47442035614871169713e+01
  -1.46373835964032572576e+01
  -1.45308491119046596651e+01
  -1.44246074213407631248e+01
  -1.43186660154081195628e+01
  -1.42130325661633278855e+01
  -1.41077149311327971759e+01
  -1.40027211575236893992e+01
  -1.38980594865408839667e+01
  -1.37937383578153589525e+01
  -1.36897664139496590963e+01
  -1.35861525051867904068e+01
  -1.34829056942094354099e+01
  -1.33800352610770545425e+01
  -1.32775507083090094085e+01
  -1.31754617661227548808e+01
  -1.30737783978369055404e+01
  -1.29725108054499180810e+01
  -1.28716694354060638972e+01
  -1.27712649845615473509e+01
  -1.26713084063647087874e+01
  -1.25718109172656777872e+01
  -1.24727840033720340784e+01
  -1.23742394273688063322e+01
  -1.22761892357226685135e+01
  -1.21786457661920248796e+01
  -1.20816216556667210824e+01
  -1.19851298483632380254e+01
  -1.18891836044035734687e+01
  -1.17937965088086329501e+01
  -1.16989824809397262584e+01
  -1.16047557844247783976e+01
  -1.15111310376092141894e+01
  -1.14181232245751758114e+01
  -1.13257477067765126577e+01
  -1.12340202353413900482e+01
  -1.11429569640991132928e+01
  -1.10525744633926947813e+01
  -1.09628897347444915766e+01
  -1.08739202264481242821e+01
  -1.07856838501668033103e+01
  -1.06981989986251235791e+01
  -1.06114845644897233257e+01
  -1.05255599605425906873e+01
  -1.04404451412604863947e+01
  -1.03561606259244065598e+01
  -1.02727275233943196042e+01
  -1.01901675586971371956e+01
  -1.01085031015894770690e+01
  -1.00277571972721109006e+01
  -9.94795359944959400877e+00
  -9.86911680594677775957e+00
  -9.79127209711449886242e+00
  -9.71444557727868129859e+00
  -9.63866421951204799257e+00
  -9.56395591403480693771e+00
  -9.49034952058095271354e+00
  -9.41787492510032642201e+00
  -9.34656310120378819306e+00
  -9.27644617680028105156e+00
  -9.20755750642063119926e+00
  -9.13993174977418476601e+00
  -9.07360495714194037475e+00
  -9.00861466227373952620e+00
  -8.94499998352906366961e+00
  -8.88280173408139717139e+00
  -8.82206254209677709355e+00
  -8.76282698189878850314e+00
  -8.70514171724719432177e+00
  -8.64905565798694730972e+00
  -8.59462013147095404975e+00
  -8.54188907032606259406e+00
  -8.49091921832041229834e+00
  -8.44177035630479366546e+00
  -8.39450555044524904247e+00
  -8.34919142524333679489e+00
  -8.30589846416025245901e+00
  -8.26470134102718390068e+00
  -8.22567928584613028420e+00
  -8.18891648907025704318e+00
  -8.15450254901369220306e+00
  -8.12253296768945176609e+00
  -8.09310970112714578306e+00
  -8.06634177109839711761e+00
  -8.04234594620032794410e+00
  -8.02124750144375298078e+00
  -8.00318106689688946176e+00
  -7.98829157758826813307e+00
  -7.97673533882482921342e+00
  -7.96868122339495599249e+00
  -7.96431201987771864026e+00
  -7.96382595456463171502e+00
  -7.96743841343683101286e+00
  -7.97538389537814396135e+00
  -7.98791823353028895838e+00
  -8.00532112864896383542e+00
  -8.02789904680194155162e+00
  -8.05598854415296017351e+00
  -8.08996009440204844054e+00
  -8.13022251036049858897e+00
  -8.17722807098784976176e+00
  -8.23147849014810262247e+00
  -8.29353189487131814417e+00
  -8.36401102107841154520e+00
  -8.44361288631796824689e+00
  -8.53312026588527317017e+00
  -8.63341538603149416531e+00
  -8.74549636324760193418e+00
  -8.87049707236685236467e+00
  -9.00971133365897003387e+00
  -9.16462259237142617962e+00
  -9.33694065621641655639e+00
  -9.52864760674344424274e+00
  -9.74205578561629792489e+00
  -9.97988189595894148454e+00
  -1.02453429433294651574e+01
  -1.05422822839359060509e+01
  -1.08753379769438769387e+01
  -1.12501718675373361123e+01
  -1.16737879959511037242e+01
  -1.21549860815884507304e+01
  -1.27050258835411771230e+01
  -1.33386332455483263004e+01
  -1.40755846359358365305e+01
  -1.49433242295168788871e+01
  -1.59815474470097118598e+01
  -1.72508491745059480138e+01
  -1.88507249765260667118e+01
  -2.09625266586740792718e+01
  -2.39755063940016164281e+01
  -2.90200577924631630822e+01
  -4.46344142934253724775e+01
  -3.19268409263455090752e+01
  -2.47063355245901590251e+01
  -2.06683693030404924684e+01
  -1.78202355255853959193e+01
  -1.56060993198036399576e+01
  -1.37909792163158311240e+01
  -1.22536918247873582999e+01
  -1.09237719987857033743e+01
  -9.75675748654580665686e+00
  -8.72283359372644007124e+00
  -7.80099943340094093003e+00
  -6.97581243197762290720e+00
  -6.23545489126529339785e+00
  -5.57053195492412633882e+00
  -4.97330078164482358716e+00
  -4.43716771895946671123e+00
  -3.95635899113171651820e+00
  -3.52570676779310598903e+00
  -3.14051276893715103355e+00
  -2.79646361388416364591e+00
  -2.48957982462554783254e+00
  -2.21618569696637823796e+00
  -1.97289112310552283702e+00
  -1.75657936013622917315e+00
  -1.56439692928658846682e+00
  -1.39374343975768155701e+00
  -1.24226026253470678284e+00
  -1.10781772682043655465e+00
  -9.88500962765012647360e-01
  -8.82594749162260772124e-01
  -7.88567812455757688461e-01
  -7.05057018706249261086e-01
  -6.30851844152160667889e-01
  -5.64879431193412440138e-01
  -5.06190453391763162116e-01
  -4.53945936055578147528e-01
  -4.07405113414136599292e-01
  -3.65914351019294481482e-01
  -3.28897122480761028296e-01
  -2.95845001485742997716e-01
  -2.66309611367206766630e-01
  -2.39895463306170286799e-01
  -2.16253608782820433420e-01
  -1.95076030585832893571e-01
  -1.76090698291579444978e-01
  -1.59057217648192417148e-01
  -1.43763007992568442317e-01
  -1.30019947141141012370e-01
  -1.17661428732941136799e-01
  -1.06539782496507515197e-01
</dep>
<dep dBS21 frequency>
  -9.12837336119327324990e-02
  -9.36739578134210826299e-02
  -9.61235369102578507405e-02
  -9.86337661384586450453e-02
  -1.01205958843667495617e-01
  -1.03841446098729903169e-01
  -1.06541576268880930356e-01
  -1.09307714521352766779e-01
  -1.12141242276046368409e-01
  -1.15043556593688992007e-01
  -1.18016069497799275245e-01
  -1.21060207226587474016e-01
  -1.24177409410768241349e-01
  -1.27369128173088458356e-01
  -1.30636827145164502451e-01
  -1.33981980397024441620e-01
  -1.37406071274684488115e-01
  -1.40910591140703561619e-01
  -1.44497038012605022450e-01
  -1.48166915093788348345e-01
  -1.51921729191376614354e-01
  -1.55762989015186870123e-01
  -1.59692203351835843028e-01
  -1.63710879107753726203e-01
  -1.67820519214641250549e-01
  -1.72022620390729630291e-01
  -1.76318670750862827035e-01
  -1.80710147258347941790e-01
  -1.85198513011082227520e-01
  -1.89785214354451170493e-01
  -1.94471677813009058422e-01
  -1.99259306832954258271e-01
  -2.04149478326982436460e-01
  -2.09143539012923179721e-01
  -2.14242801537356503117e-01
  -2.19448540375167033822e-01
  -2.24761987495591453179e-01
  -2.30184327785446396497e-01
  -2.35716694219456679438e-01
  -2.41360162767960684249e-01
  -2.47115747031605936801e-01
  -2.52984392592584372839e-01
  -2.58966971071868390375e-01
  -2.65064273881439049774e-01
  -2.71277005660612524629e-01
  -2.77605777385142804548e-01
  -2.84051099137708762399e-01
  -2.90613372528304214626e-01
  -2.97292882752781983946e-01
  -3.04089790277801752527e-01
  -3.11004122140164485089e-01
  -3.18035762848661085478e-01
  -3.25184444876286060655e-01
  -3.32449738730730803837e-01
  -3.39831042591068444025e-01
  -3.47327571498456999510e-01
  -3.54938346088911726994e-01
  -3.62662180856023308451e-01
  -3.70497671931892647024e-01
  -3.78443184374451291330e-01
  -3.86496838949745014080e-01
  -3.94656498397828792157e-01
  -4.02919753171342209797e-01
  -4.11283906636127349898e-01
  -4.19745959723678452313e-01
  -4.28302595025672916407e-01
  -4.36950160321502634186e-01
  -4.45684651530187936341e-01
  -4.54501695078918799275e-01
  -4.63396529681420643598e-01
  -4.72363987519954342531e-01
  -4.81398474826322753106e-01
  -4.90493951858108290232e-01
  -4.99643912268008805189e-01
  -5.08841361865678076803e-01
  -5.18078796773347560745e-01
  -5.27348180978483793702e-01
  -5.36640923289226523529e-01
  -5.45947853700934127019e-01
  -5.55259199185274443522e-01
  -5.64564558916742509354e-01
  -5.73852878955472212041e-01
  -5.83112426409713391351e-01
  -5.92330763106489799341e-01
  -6.01494718804955530445e-01
  -6.10590363993515961027e-01
  -6.19602982319768846864e-01
  -6.28517042710971196584e-01
  -6.37316171252998997510e-01
  -6.45983122907465290297e-01
  -6.54499753159974440031e-01
  -6.62846989708038680789e-01
  -6.71004804314824121469e-01
  -6.78952184975324390948e-01
  -6.86667108565168105017e-01
  -6.94126514169334796200e-01
  -7.01306277319178716922e-01
  -7.08181185402548929453e-01
  -7.14724914553030110653e-01
  -7.20910008372718014158e-01
  -7.26707858898187453178e-01
  -7.32088690283628995559e-01
  -7.37021545749137807491e-01
  -7.41474278427856070550e-01
  -7.45413546844808649894e-01
  -7.48804815874899221129e-01
  -7.51612364160108570310e-01
  -7.53799299119615739961e-01
  -7.55327580864008640837e-01
  -7.56158056530700228848e-01
  -7.56250506795505539337e-01
  -7.55563706591181882821e-01
  -7.54055502382681375195e-01
  -7.51682908718132591908e-01
  -7.48402227201746650387e-01
  -7.44169191528940343616e-01
  -7.38939142794831749228e-01
  -7.32667239946734771827e-01
  -7.25308711011873219476e-01
  -7.16819151607989590858e-01
  -7.07154878252492569146e-01
  -6.96273345142881527892e-01
  -6.84133634405927448796e-01
  -6.70697031324848813583e-01
  -6.55927697772463624837e-01
  -6.39793459022279797921e-01
  -6.22266721295149483062e-01
  -6.03325539837730073778e-01
  -5.82954860022439680378e-01
  -5.61147956897269706289e-01
  -5.37908101765384061288e-01
  -5.13250487679073663649e-01
  -4.87204449086925506229e-01
  -4.59816014115418836283e-01
  -4.31150830853967936829e-01
  -4.01297511195153000507e-01
  -3.70371436766031514320e-01
  -3.38519070594064663826e-01
  -3.05922814472289639198e-01
  -2.72806444328060004878e-01
  -2.39441142727315758876e-01
  -2.06152127057017298117e-01
  -1.73325841629817511969e-01
  -1.41417639313023479897e-01
  -1.10959820459219149491e-01
  -8.25698211474893972728e-02
  -5.69582468494137655890e-02
  -3.49363307880050377729e-02
  -1.74222601233130179599e-02
  -5.44566331172414725553e-03
  -1.49399915533656954016e-04
  -2.78765865646886856419e-03
  -1.47192782400850843277e-02
  -3.73951947303029844094e-02
  -7.23390314690897234806e-02
  -1.21120125188410379669e-01
  -1.85318757163517006115e-01
  -2.66484038625352304130e-01
  -3.66085752950370713066e-01
  -4.85462399683676881779e-01
  -6.25768580898189319406e-01
  -7.87925545250902636951e-01
  -9.72578982940780267796e-01
  -1.18006791388707821255e+00
  -1.41040769220230566283e+00
  -1.66328884356771933284e+00
  -1.93809185518880200405e+00
  -2.23391642047458782727e+00
  -2.54962227760858972658e+00
  -2.88387788350703466733e+00
  -3.23521283138764781384e+00
  -3.60207012801798720503e+00
  -3.98285507458508636347e+00
  -4.37597836993934130589e+00
  -4.77989200026027827306e+00
  -5.19311735186449752177e+00
  -5.61426569236006045571e+00
  -6.04205167052036618003e+00
  -6.47530078988800550377e+00
  -6.91295194473544238889e+00
  -7.35405611132891579018e+00
  -7.79777220538311688358e+00
  -8.24336098558218388632e+00
  -8.69017773200452481319e+00
  -9.13766427731230201914e+00
  -9.58534082999286596305e+00
  -1.00327979091272734280e+01
  -1.04796886112425546855e+01
  -1.09257213512401172295e+01
  -1.13706531591371060586e+01
  -1.18142835696982846372e+01
  -1.22564491101230537140e+01
  -1.26970183691099443024e+01
  -1.31358876165038136463e+01
  -1.35729769343767436851e+01
  -1.40082268162213878782e+01
  -1.44415951897032179829e+01
  -1.48730548191775984179e+01
  -1.53025910462234282505e+01
  -1.57301998292547811076e+01
  -1.61558860464826352654e+01
</dep>
<dep S[1,1] frequency>
  -3.76572640970843225405e-02-j1.39217205423437462297e-01
  -3.86409830761960393364e-02-j1.40872807980057718202e-01
  -3.96490372712096708629e-02-j1.42541477006764616409e-01
  -4.06819553927130414528e-02-j1.44223032452685528959e-01
  -4.17402736429210718949e-02-j1.45917279281316036865e-01
  -4.28245355872563515653e-02-j1.47624006891502373984e-01
  -4.39352920080682621262e-02-j1.49342988523542302692e-01
  -4.50731007395008612115e-02-j1.51073980650374029011e-01
  -4.62385264824936095818e-02-j1.52816722353844552940e-01
  -4.74321405988609723359e-02-j1.54570934686080657672e-01
  -4.86545208833587886077e-02-j1.56336320016015800638e-01
  -4.99062513126152379472e-02-j1.58112561361161557683e-01
  -5.11879217697633684403e-02-j1.59899321704743940797e-01
  -5.25001277435861377074e-02-j1.61696243298365127661e-01
  -5.38434700009393849007e-02-j1.63502946950392746839e-01
  -5.52185542311920060654e-02-j1.65319031300316221511e-01
  -5.66259906613846425438e-02-j1.67144072079359884420e-01
  -5.80663936407762176772e-02-j1.68977621357687207704e-01
  -5.95403811934153565089e-02-j1.70819206778579424366e-01
  -6.10485745373392368895e-02-j1.72668330780026524351e-01
  -6.25915975689767811740e-02-j1.74524469804219983793e-01
  -6.41700763112961480861e-02-j1.76387073495497814779e-01
  -6.57846383242164656213e-02-j1.78255563887347284746e-01
  -6.74359120757694052717e-02-j1.80129334579135935712e-01
  -6.91245262724737713489e-02-j1.82007749903305815486e-01
  -7.08511091473641996252e-02-j1.83890144083828033228e-01
  -7.26162877040898990799e-02-j1.85775820386789691785e-01
  -7.44206869154828559720e-02-j1.87664050264050918937e-01
  -7.62649288749718823333e-02-j1.89554072490983938071e-01
  -7.81496318992125349467e-02-j1.91445092299380503764e-01
